Sample in Buffer,Sample in Window,TRIGGER,ADC_data_valid,IF_out[23:0],filt_sec_3_out[33:0]
Radix - UNSIGNED,UNSIGNED,UNSIGNED,HEX,UNSIGNED,SIGNED
0,0,0,0,1802767,24150103
1,1,0,0,1773741,24150103
2,2,0,0,1773741,24150103
3,3,0,0,1744084,19602137
4,4,0,0,1744084,19602137
5,5,0,0,1744084,19602137
6,6,0,0,1713796,19602137
7,7,0,0,1713796,19602137
8,8,0,1,3158708,19602137
9,9,0,0,3102884,19602137
10,10,0,0,3102884,19602137
11,11,0,0,3047060,19602137
12,12,0,0,3047060,19602137
13,13,0,0,3047060,13442087
14,14,0,0,2990073,13442087
15,15,0,0,2990073,13442087
16,16,0,0,2990073,13442087
17,17,0,0,2933086,13442087
18,18,0,1,4499248,13442087
19,19,0,0,4499248,13442087
20,20,0,0,4411832,13442087
21,21,0,0,4411832,13442087
22,22,0,0,4324416,13442087
23,23,0,0,4324416,6176520
24,24,0,0,4324416,6176520
25,25,0,0,4235216,6176520
26,26,0,0,4235216,6176520
27,27,0,0,4235216,6176520
28,28,0,1,5512528,6176520
29,29,0,0,5512528,6176520
30,30,0,0,5393928,6176520
31,31,0,0,5393928,6176520
32,32,0,0,5393928,6176520
33,33,0,0,5275328,-1597070
34,34,0,0,5275328,-1597070
35,35,0,0,5275328,-1597070
36,36,0,0,5156728,-1597070
37,37,0,0,5156728,-1597070
38,38,0,1,6093010,-1597070
39,39,0,0,6093010,-1597070
40,40,0,0,6093010,-1597070
41,41,0,0,5949510,-1597070
42,42,0,0,5949510,-1597070
43,43,0,0,5949510,-9239397
44,44,0,0,5803140,-9239397
45,45,0,0,5803140,-9239397
46,46,0,0,5659640,-9239397
47,47,0,0,5659640,-9239397
48,48,0,1,6280820,-9239397
49,49,0,0,6118385,-9239397
50,50,0,0,6118385,-9239397
51,51,0,0,6118385,-9239397
52,52,0,0,5959135,-9239397
53,53,0,0,5959135,-16121959
54,54,0,0,5959135,-16121959
55,55,0,0,5799885,-16121959
56,56,0,0,5799885,-16121959
57,57,0,0,5640635,-16121959
58,58,0,1,5844300,-16121959
59,59,0,0,5844300,-16121959
60,60,0,0,5679300,-16121959
61,61,0,0,5679300,-16121959
62,62,0,0,5679300,-16121959
63,63,0,0,5514300,-21678725
64,64,0,0,5514300,-21678725
65,65,0,0,5352600,-21678725
66,66,0,0,5352600,-21678725
67,67,0,0,5352600,-21678725
68,68,0,1,4973826,-21678725
69,69,0,0,4973826,-21678725
70,70,0,0,4973826,-21678725
71,71,0,0,4818888,-21678725
72,72,0,0,4818888,-21678725
73,73,0,0,4663950,-25452690
74,74,0,0,4663950,-25452690
75,75,0,0,4663950,-25452690
76,76,0,0,4512174,-25452690
77,77,0,0,4512174,-25452690
78,78,0,1,4042691,-25452690
79,79,0,0,3906707,-25452690
80,80,0,0,3906707,-25452690
81,81,0,0,3770723,-25452690
82,82,0,0,3770723,-25452690
83,83,0,0,3770723,-27133462
84,84,0,0,3637572,-27133462
85,85,0,0,3637572,-27133462
86,86,0,0,3637572,-27133462
87,87,0,0,3507254,-27133462
88,88,0,1,2887016,-27133462
89,89,0,0,2887016,-27133462
90,90,0,0,2779744,-27133462
91,91,0,0,2779744,-27133462
92,92,0,0,2672472,-27133462
93,93,0,0,2672472,-26582792
94,94,0,0,2672472,-26582792
95,95,0,0,2567532,-26582792
96,96,0,0,2567532,-26582792
97,97,0,0,2567532,-26582792
98,98,0,1,1810641,-26582792
99,99,0,0,1810641,-26582792
100,100,0,0,1735269,-26582792
101,101,0,0,1735269,-26582792
102,102,0,0,1735269,-26582792
103,103,0,0,1661610,-23845949
104,104,0,0,1661610,-23845949
105,105,0,0,1661610,-23845949
106,106,0,0,1587951,-23845949
107,107,0,0,1587951,-23845949
108,108,0,1,971730,-23845949
109,109,0,0,971730,-23845949
110,110,0,0,971730,-23845949
111,111,0,0,926712,-23845949
112,112,0,0,926712,-23845949
113,113,0,0,926712,-19147996
114,114,0,0,882792,-19147996
115,115,0,0,882792,-19147996
116,116,0,0,882792,-19147996
117,117,0,0,838872,-19147996
118,118,0,1,440828,-19147996
119,119,0,0,418325,-19147996
120,120,0,0,418325,-19147996
121,121,0,0,418325,-19147996
122,122,0,0,396399,-19147996
123,123,0,0,396399,-12875284
124,124,0,0,396399,-12875284
125,125,0,0,375050,-12875284
126,126,0,0,375050,-12875284
127,127,0,0,353701,-12875284
128,128,0,1,121987,-12875284
129,129,0,0,121987,-12875284
130,130,0,0,115022,-12875284
131,131,0,0,115022,-12875284
132,132,0,0,115022,-12875284
133,133,0,0,108057,-5543681
134,134,0,0,108057,-5543681
135,135,0,0,101291,-5543681
136,136,0,0,101291,-5543681
137,137,0,0,101291,-5543681
138,138,0,1,17136,-5543681
139,139,0,0,17136,-5543681
140,140,0,0,17136,-5543681
141,141,0,0,15984,-5543681
142,142,0,0,15984,-5543681
143,143,0,0,14904,2243858
144,144,0,0,14904,2243858
145,145,0,0,14904,2243858
146,146,0,0,13824,2243858
147,147,0,0,13824,2243858
148,148,0,1,43008,2243858
149,149,0,0,39760,2243858
150,150,0,0,39760,2243858
151,151,0,0,39760,2243858
152,152,0,0,36624,2243858
153,153,0,0,36624,9846879
154,154,0,0,33600,9846879
155,155,0,0,33600,9846879
156,156,0,0,33600,9846879
157,157,0,0,30688,9846879
158,158,0,1,105764,9846879
159,159,0,0,105764,9846879
160,160,0,0,96500,9846879
161,161,0,0,96500,9846879
162,162,0,0,87236,9846879
163,163,0,0,87236,16640102
164,164,0,0,87236,16640102
165,165,0,0,78744,16640102
166,166,0,0,78744,16640102
167,167,0,0,78744,16640102
168,168,0,1,153608,16640102
169,169,0,0,153608,16640102
170,170,0,0,136728,16640102
171,171,0,0,136728,16640102
172,172,0,0,136728,16640102
173,173,0,0,120692,22064844
174,174,0,0,120692,22064844
175,175,0,0,120692,22064844
176,176,0,0,105500,22064844
177,177,0,0,105500,22064844
178,178,0,1,153468,22064844
179,179,0,0,153468,22064844
180,180,0,0,153468,22064844
181,181,0,0,132153,22064844
182,182,0,0,132153,22064844
183,183,0,0,132153,25674969
184,184,0,0,110838,25674969
185,185,0,0,110838,25674969
186,186,0,0,110838,25674969
187,187,0,0,92365,25674969
188,188,0,1,132275,25674969
189,189,0,0,107855,25674969
190,190,0,0,107855,25674969
191,191,0,0,107855,25674969
192,192,0,0,85470,25674969
193,193,0,0,85470,27173579
194,194,0,0,85470,27173579
195,195,0,0,67155,27173579
196,196,0,0,67155,27173579
197,197,0,0,48840,27173579
198,198,0,1,62232,27173579
199,199,0,0,62232,27173579
200,200,0,0,44081,27173579
201,201,0,0,44081,27173579
202,202,0,0,44081,27173579
203,203,0,0,28523,26437430
204,204,0,0,28523,26437430
205,205,0,0,18151,26437430
206,206,0,0,18151,26437430
207,207,0,0,18151,26437430
208,208,0,1,9084,26437430
209,209,0,0,9084,26437430
210,210,0,0,9084,26437430
211,211,0,0,3028,26437430
212,212,0,0,3028,26437430
213,213,0,0,0,23527068
214,214,0,0,0,23527068
215,215,0,0,0,23527068
216,216,0,0,0,23527068
217,217,0,0,0,23527068
218,218,0,1,0,23527068
219,219,0,0,6530,23527068
220,220,0,0,6530,23527068
221,221,0,0,6530,23527068
222,222,0,0,16325,23527068
223,223,0,0,16325,18681850
224,224,0,0,29385,18681850
225,225,0,0,29385,18681850
226,226,0,0,29385,18681850
227,227,0,0,45710,18681850
228,228,0,1,45906,18681850
229,229,0,0,45906,18681850
230,230,0,0,68859,18681850
231,231,0,0,68859,18681850
232,232,0,0,91812,18681850
233,233,0,0,91812,12300257
234,234,0,0,91812,12300257
235,235,0,0,121323,12300257
236,236,0,0,121323,12300257
237,237,0,0,121323,12300257
238,238,0,1,142880,12300257
239,239,0,0,142880,12300257
240,240,0,0,179360,12300257
241,241,0,0,179360,12300257
242,242,0,0,179360,12300257
243,243,0,0,215840,4907121
244,244,0,0,215840,4907121
245,245,0,0,215840,4907121
246,246,0,0,258400,4907121
247,247,0,0,258400,4907121
248,248,0,1,224400,4907121
249,249,0,0,264000,4907121
250,250,0,0,264000,4907121
251,251,0,0,306240,4907121
252,252,0,0,306240,4907121
253,253,0,0,306240,-2889539
254,254,0,0,353760,-2889539
255,255,0,0,353760,-2889539
256,256,0,0,353760,-2889539
257,257,0,0,401280,-2889539
258,258,0,1,316464,-2889539
259,259,0,0,358104,-2889539
260,260,0,0,358104,-2889539
261,261,0,0,358104,-2889539
262,262,0,0,401826,-2889539
263,263,0,0,401826,-10448523
264,264,0,0,401826,-10448523
265,265,0,0,447630,-10448523
266,266,0,0,447630,-10448523
267,267,0,0,495516,-10448523
268,268,0,1,347718,-10448523
269,269,0,0,347718,-10448523
270,270,0,0,382782,-10448523
271,271,0,0,382782,-10448523
272,272,0,0,382782,-10448523
273,273,0,0,419307,-17148180
274,274,0,0,419307,-17148180
275,275,0,0,457293,-17148180
276,276,0,0,457293,-17148180
277,277,0,0,457293,-17148180
278,278,0,1,294624,-17148180
279,279,0,0,294624,-17148180
280,280,0,0,294624,-17148180
281,281,0,0,318816,-17148180
282,282,0,0,318816,-17148180
283,283,0,0,318816,-22437536
284,284,0,0,343872,-22437536
285,285,0,0,343872,-22437536
286,286,0,0,370656,-22437536
287,287,0,0,370656,-22437536
288,288,0,1,174174,-22437536
289,289,0,0,186760,-22437536
290,290,0,0,186760,-22437536
291,291,0,0,186760,-22437536
292,292,0,0,200158,-22437536
293,293,0,0,200158,-25881608
294,294,0,0,213556,-25881608
295,295,0,0,213556,-25881608
296,296,0,0,213556,-25881608
297,297,0,0,227360,-25881608
298,298,0,1,61040,-25881608
299,299,0,0,61040,-25881608
300,300,0,0,64855,-25881608
301,301,0,0,64855,-25881608
302,302,0,0,68779,-25881608
303,303,0,0,68779,-27197172
304,304,0,0,68779,-27197172
305,305,0,0,72812,-27197172
306,306,0,0,72812,-27197172
307,307,0,0,72812,-27197172
308,308,0,1,26122,-27197172
309,309,0,0,26122,-27197172
310,310,0,0,27528,-27197172
311,311,0,0,27528,-27197172
312,312,0,0,27528,-27197172
313,313,0,0,29008,-26276054
314,314,0,0,29008,-26276054
315,315,0,0,29008,-26276054
316,316,0,0,30488,-26276054
317,317,0,0,30488,-26276054
318,318,0,1,168920,-26276054
319,319,0,0,177325,-26276054
320,320,0,0,177325,-26276054
321,321,0,0,185730,-26276054
322,322,0,0,185730,-26276054
323,323,0,0,185730,-23194030
324,324,0,0,194340,-23194030
325,325,0,0,194340,-23194030
326,326,0,0,194340,-23194030
327,327,0,0,203155,-23194030
328,328,0,1,537122,-23194030
329,329,0,0,560970,-23194030
330,330,0,0,560970,-23194030
331,331,0,0,560970,-23194030
332,332,0,0,584818,-23194030
333,333,0,0,584818,-18204588
334,334,0,0,584818,-18204588
335,335,0,0,609208,-18204588
336,336,0,0,609208,-18204588
337,337,0,0,633598,-18204588
338,338,0,1,1244985,-18204588
339,339,0,0,1244985,-18204588
340,340,0,0,1293975,-18204588
341,341,0,0,1293975,-18204588
342,342,0,0,1293975,-18204588
343,343,0,0,1342965,-11718078
344,344,0,0,1342965,-11718078
345,345,0,0,1393020,-11718078
346,346,0,0,1393020,-11718078
347,347,0,0,1393020,-11718078
348,348,0,1,2264205,-11718078
349,349,0,0,2264205,-11718078
350,350,0,0,2264205,-11718078
351,351,0,0,2344413,-11718078
352,352,0,0,2344413,-11718078
353,353,0,0,2344413,-4267961
354,354,0,0,2424621,-4267961
355,355,0,0,2424621,-4267961
356,356,0,0,2504829,-4267961
357,357,0,0,2504829,-4267961
358,358,0,1,3420718,-4267961
359,359,0,0,3532536,-4267961
360,360,0,0,3532536,-4267961
361,361,0,0,3532536,-4267961
362,362,0,0,3644354,-4267961
363,363,0,0,3644354,3533063
364,364,0,0,3758454,3533063
365,365,0,0,3758454,3533063
366,366,0,0,3758454,3533063
367,367,0,0,3870272,3533063
368,368,0,1,4747104,3533063
369,369,0,0,4747104,3533063
370,370,0,0,4887054,3533063
371,371,0,0,4887054,3533063
372,372,0,0,5027004,3533063
373,373,0,0,5027004,11043446
374,374,0,0,5027004,11043446
375,375,0,0,5166954,11043446
376,376,0,0,5166954,11043446
377,377,0,0,5166954,11043446
378,378,0,1,5957232,11043446
379,379,0,0,5957232,11043446
380,380,0,0,5957232,11043446
381,381,0,0,6117474,11043446
382,382,0,0,6117474,11043446
383,383,0,0,6274574,17645556
384,384,0,0,6274574,17645556
385,385,0,0,6274574,17645556
386,386,0,0,6431674,17645556
387,387,0,0,6431674,17645556
388,388,0,1,6765335,17645556
389,389,0,0,6768640,17645556
390,390,0,0,6768640,17645556
391,391,0,0,6933890,17645556
392,392,0,0,6933890,17645556
393,393,0,0,6933890,22796465
394,394,0,0,7099140,22796465
395,395,0,0,7099140,22796465
396,396,0,0,7099140,22796465
397,397,0,0,7267695,22796465
398,398,0,1,7082979,22796465
399,399,0,0,7244029,22796465
400,400,0,0,7244029,22796465
401,401,0,0,7244029,22796465
402,402,0,0,7405079,22796465
403,403,0,0,7405079,26072599
404,404,0,0,7405079,26072599
405,405,0,0,7566129,26072599
406,406,0,0,7566129,26072599
407,407,0,0,7727179,26072599
408,408,0,1,6983489,26072599
409,409,0,0,6983489,26072599
410,410,0,0,7126128,26072599
411,411,0,0,7126128,26072599
412,412,0,0,7126128,26072599
413,413,0,0,7271678,27204569
414,414,0,0,7271678,27204569
415,415,0,0,7271678,27204569
416,416,0,0,7414317,27204569
417,417,0,0,7414317,27204569
418,418,0,1,6290108,27204569
419,419,0,0,6290108,27204569
420,420,0,0,6290108,27204569
421,421,0,0,6406412,27204569
422,422,0,0,6406412,27204569
423,423,0,0,6406412,26099321
424,424,0,0,6522716,26099321
425,425,0,0,6522716,26099321
426,426,0,0,6639020,26099321
427,427,0,0,6639020,26099321
428,428,0,1,5000500,26099321
429,429,0,0,5086275,26099321
430,430,0,0,5086275,26099321
431,431,0,0,5086275,26099321
432,432,0,0,5172050,26099321
433,433,0,0,5172050,22847781
434,434,0,0,5256000,22847781
435,435,0,0,5256000,22847781
436,436,0,0,5256000,22847781
437,437,0,0,5339950,22847781
438,438,0,1,3505348,22847781
439,439,0,0,3505348,22847781
440,440,0,0,3559258,22847781
441,441,0,0,3559258,22847781
442,442,0,0,3613168,22847781
443,443,0,0,3613168,17717376
444,444,0,0,3613168,17717376
445,445,0,0,3665880,17717376
446,446,0,0,3665880,17717376
447,447,0,0,3665880,17717376
448,448,0,1,2051744,17717376
449,449,0,0,2051744,17717376
450,450,0,0,2051744,17717376
451,451,0,0,2080167,17717376
452,452,0,0,2080167,17717376
453,453,0,0,2107929,11130035
454,454,0,0,2107929,11130035
455,455,0,0,2107929,11130035
456,456,0,0,2135030,11130035
457,457,0,0,2135030,11130035
458,458,0,1,771970,11130035
459,459,0,0,781769,11130035
460,460,0,0,781769,11130035
461,461,0,0,791329,11130035
462,462,0,0,791329,11130035
463,463,0,0,791329,3627486
464,464,0,0,800889,3627486
465,465,0,0,800889,3627486
466,466,0,0,800889,3627486
467,467,0,0,809971,3627486
468,468,0,1,183006,3627486
469,469,0,0,185058,3627486
470,470,0,0,185058,3627486
471,471,0,0,185058,3627486
472,472,0,0,187056,3627486
473,473,0,0,187056,-4173291
474,474,0,0,187056,-4173291
475,475,0,0,189000,-4173291
476,476,0,0,189000,-4173291
477,477,0,0,190890,-4173291
478,478,0,1,254520,-4173291
479,479,0,0,254520,-4173291
480,480,0,0,256968,-4173291
481,481,0,0,256968,-4173291
482,482,0,0,256968,-4173291
483,483,0,0,259344,-11630803
484,484,0,0,259344,-11630803
485,485,0,0,259344,-11630803
486,486,0,0,261720,-11630803
487,487,0,0,261720,-11630803
488,488,0,1,1118130,-11630803
489,489,0,0,1118130,-11630803
490,490,0,0,1118130,-11630803
491,491,0,0,1127585,-11630803
492,492,0,0,1127585,-11630803
493,493,0,0,1127585,-18131797
494,494,0,0,1136430,-18131797
495,495,0,0,1136430,-18131797
496,496,0,0,1144970,-18131797
497,497,0,0,1144970,-18131797
498,498,0,1,2826762,-18131797
499,499,0,0,2847846,-18131797
500,500,0,0,2847846,-18131797
501,501,0,0,2847846,-18131797
502,502,0,0,2867424,-18131797
503,503,0,0,2867424,-23141686
504,504,0,0,2886249,-23141686
505,505,0,0,2886249,-23141686
506,506,0,0,2886249,-23141686
507,507,0,0,2904321,-23141686
508,508,0,1,5029528,-23141686
509,509,0,0,5029528,-23141686
510,510,0,0,5059520,-23141686
511,511,0,0,5059520,-23141686
512,512,0,0,5059520,-23141686
513,513,0,0,5088208,-26248507
514,514,0,0,5088208,-26248507
515,515,0,0,5115592,-26248507
516,516,0,0,5115592,-26248507
517,517,0,0,5115592,-26248507
518,518,0,1,7613933,-26248507
519,519,0,0,7613933,-26248507
520,520,0,0,7613933,-26248507
521,521,0,0,7648691,-26248507
522,522,0,0,7648691,-26248507
523,523,0,0,7683449,-27196794
524,524,0,0,7683449,-27196794
525,525,0,0,7683449,-27196794
526,526,0,0,7714345,-27196794
527,527,0,0,7714345,-27196794
528,528,0,1,10019460,-27196794
529,529,0,0,10057080,-27196794
530,530,0,0,10057080,-27196794
531,531,0,0,10092192,-27196794
532,532,0,0,10092192,-27196794
533,533,0,0,10092192,-25908579
534,534,0,0,10122288,-25908579
535,535,0,0,10122288,-25908579
536,536,0,0,10122288,-25908579
537,537,0,0,10152384,-25908579
538,538,0,1,12046848,-25908579
539,539,0,0,12076608,-25908579
540,540,0,0,12076608,-25908579
541,541,0,0,12076608,-25908579
542,542,0,0,12103392,-25908579
543,543,0,0,12103392,-22489805
544,544,0,0,12103392,-22489805
545,545,0,0,12124224,-22489805
546,546,0,0,12124224,-22489805
547,547,0,0,12124224,-22489805
548,548,0,1,13161225,-22489805
549,549,0,0,13161225,-22489805
550,550,0,0,13177350,-22489805
551,551,0,0,13177350,-22489805
552,552,0,0,13177350,-22489805
553,553,0,0,13190250,-17221614
554,554,0,0,13190250,-17221614
555,555,0,0,13190250,-17221614
556,556,0,0,13199925,-17221614
557,557,0,0,13199925,-17221614
558,558,0,1,13480740,-17221614
559,559,0,0,13480740,-17221614
560,560,0,0,13480740,-17221614
561,561,0,0,13480740,-17221614
562,562,0,0,13480740,-17221614
563,563,0,0,13480740,-10537223
564,564,0,0,13477448,-10537223
565,565,0,0,13477448,-10537223
566,566,0,0,13470864,-10537223
567,567,0,0,13470864,-10537223
568,568,0,1,12779316,-10537223
569,569,0,0,12766824,-10537223
570,570,0,0,12766824,-10537223
571,571,0,0,12766824,-10537223
572,572,0,0,12754332,-10537223
573,573,0,0,12754332,-2986305
574,574,0,0,12735594,-2986305
575,575,0,0,12735594,-2986305
576,576,0,0,12735594,-2986305
577,577,0,0,12713733,-2986305
578,578,0,1,11056836,-2986305
579,579,0,0,11056836,-2986305
580,580,0,0,11032392,-2986305
581,581,0,0,11032392,-2986305
582,582,0,0,11032392,-2986305
583,583,0,0,11007948,4810211
584,584,0,0,11007948,4810211
585,585,0,0,10978072,4810211
586,586,0,0,10978072,4810211
587,587,0,0,10978072,4810211
588,588,0,1,8773310,4810211
589,589,0,0,8773310,4810211
590,590,0,0,8773310,4810211
591,591,0,0,8745009,4810211
592,592,0,0,8745009,4810211
593,593,0,0,8712354,12211195
594,594,0,0,8712354,12211195
595,595,0,0,8712354,12211195
596,596,0,0,8679699,12211195
597,597,0,0,8679699,12211195
598,598,0,1,6247629,12211195
599,599,0,0,6220990,12211195
600,600,0,0,6220990,12211195
601,601,0,0,6192784,12211195
602,602,0,0,6192784,12211195
603,603,0,0,6192784,18608037
604,604,0,0,6163011,18608037
605,605,0,0,6163011,18608037
606,606,0,0,6163011,18608037
607,607,0,0,6131671,18608037
608,608,0,1,3748654,18608037
609,609,0,0,3727578,18608037
610,610,0,0,3727578,18608037
611,611,0,0,3727578,18608037
612,612,0,0,3706502,18608037
613,613,0,0,3706502,23474695
614,614,0,0,3706502,23474695
615,615,0,0,3683510,23474695
616,616,0,0,3683510,23474695
617,617,0,0,3683510,23474695
618,618,0,1,1757660,23474695
619,619,0,0,1757660,23474695
620,620,0,0,1745700,23474695
621,621,0,0,1745700,23474695
622,622,0,0,1745700,23474695
623,623,0,0,1733280,26410949
624,624,0,0,1733280,26410949
625,625,0,0,1733280,26410949
626,626,0,0,1720400,26410949
627,627,0,0,1720400,26410949
628,628,0,1,590049,26410949
629,629,0,0,590049,26410949
630,630,0,0,590049,26410949
631,631,0,0,585279,26410949
632,632,0,0,585279,26410949
633,633,0,0,585279,27175315
634,634,0,0,580509,27175315
635,635,0,0,580509,27175315
636,636,0,0,575421,27175315
637,637,0,0,575421,27175315
638,638,0,1,126665,27175315
639,639,0,0,125510,27175315
640,640,0,0,125510,27175315
641,641,0,0,125510,27175315
642,642,0,0,124320,27175315
643,643,0,0,124320,25704906
644,644,0,0,124320,25704906
645,645,0,0,123095,25704906
646,646,0,0,123095,25704906
647,647,0,0,121870,25704906
648,648,0,1,452660,25704906
649,649,0,0,452660,25704906
650,650,0,0,447850,25704906
651,651,0,0,447850,25704906
652,652,0,0,447850,25704906
653,653,0,0,443040,22120612
654,654,0,0,443040,22120612
655,655,0,0,438100,22120612
656,656,0,0,438100,22120612
657,657,0,0,438100,22120612
658,658,0,1,1605542,22120612
659,659,0,0,1605542,22120612
660,660,0,0,1605542,22120612
661,661,0,0,1586262,22120612
662,662,0,0,1586262,22120612
663,663,0,0,1566982,16717160
664,664,0,0,1566982,16717160
665,665,0,0,1566982,16717160
666,666,0,0,1547220,16717160
667,667,0,0,1547220,16717160
668,668,0,1,3136170,16717160
669,669,0,0,3095136,16717160
670,670,0,0,3095136,16717160
671,671,0,0,3053125,16717160
672,672,0,0,3053125,16717160
673,673,0,0,3053125,9938882
674,674,0,0,3011114,9938882
675,675,0,0,3011114,9938882
676,676,0,0,3011114,9938882
677,677,0,0,2968126,9938882
678,678,0,1,4751432,9938882
679,679,0,0,4751432,9938882
680,680,0,0,4682616,9938882
681,681,0,0,4682616,9938882
682,682,0,0,4612236,9938882
683,683,0,0,4612236,2343180
684,684,0,0,4612236,2343180
685,685,0,0,4540292,2343180
686,686,0,0,4540292,2343180
687,687,0,0,4540292,2343180
688,688,0,1,6216832,2343180
689,689,0,0,6216832,2343180
690,690,0,0,6116736,2343180
691,691,0,0,6116736,2343180
692,692,0,0,6116736,2343180
693,693,0,0,6014464,-5445306
694,694,0,0,6014464,-5445306
695,695,0,0,6014464,-5445306
696,696,0,0,5910016,-5445306
697,697,0,0,5910016,-5445306
